#Parameters = {ADD=-10.5; Antenna_len=49.973684210526; Antenna_ofset=0.5; Antenna_radius=0.4; Bend_Add=-20; C1=500; C2=300; D2Device=2.25; Feed_Point_v=24.5; L1=24; LenAntenna=-10.584073464102; Offset2mid=2; TransformPAR=20.5; Turn_Radius=1; Turns=5; addlen=2; c=300000000; copperthickness=0.3; f=1900000000; lambda=0.15789473684211; u_feed_point=10; add1=0}
#"Frequency / MHz"	"S3,3 (103) [Real/Imaginary Part] [Re]"	"S3,3 (103) [Real/Imaginary Part] [Im]"
#-------------------------------------------------------------------------------------------------
1500.0000000000	0.47243550419807	0.83641690015793
1501.5000000000	0.47796273231506	0.83166617155075
1503.0000000000	0.48327353596687	0.82689315080643
1504.5000000000	0.48836937546730	0.82211154699326
1506.0000000000	0.49325332045555	0.81733447313309
1507.5000000000	0.49792897701263	0.81257510185242
1509.0000000000	0.50240081548691	0.80784589052200
1510.5000000000	0.50667452812195	0.80315893888474
1512.0000000000	0.51075667142868	0.79852598905563
1513.5000000000	0.51465421915054	0.79395794868469
1515.0000000000	0.51837557554245	0.78946512937546
1516.5000000000	0.52192938327789	0.78505724668503
1518.0000000000	0.52532511949539	0.78074318170547
1519.5000000000	0.52857249975204	0.77653092145920
1521.0000000000	0.53168261051178	0.77242773771286
1522.5000000000	0.53466558456421	0.76844006776810
1524.0000000000	0.53753346204758	0.76457321643829
1525.5000000000	0.54029726982117	0.76083183288574
1527.0000000000	0.54296922683716	0.75721943378448
1528.5000000000	0.54556095600128	0.75373882055283
1530.0000000000	0.54808473587036	0.75039148330688
1531.5000000000	0.55055236816406	0.74717843532562
1533.0000000000	0.55297571420670	0.74409931898117
1534.5000000000	0.55536657571793	0.74115318059921
1536.0000000000	0.55773657560349	0.73833799362183
1537.5000000000	0.56009674072266	0.73565101623535
1539.0000000000	0.56245815753937	0.73308855295181
1540.5000000000	0.56483113765717	0.73064601421356
1542.0000000000	0.56722545623779	0.72831845283508
1543.5000000000	0.56965070962906	0.72609966993332
1545.0000000000	0.57211565971375	0.72398334741592
1546.5000000000	0.57462853193283	0.72196221351624
1548.0000000000	0.57719653844833	0.72002840042114
1549.5000000000	0.57982677221298	0.71817392110825
1551.0000000000	0.58252543210983	0.71639001369476
1552.5000000000	0.58529734611511	0.71466767787933
1554.0000000000	0.58814716339111	0.71299749612808
1555.5000000000	0.59107851982117	0.71137017011642
1557.0000000000	0.59409433603287	0.70977586507797
1558.5000000000	0.59719693660736	0.70820468664169
1560.0000000000	0.60038703680038	0.70664685964584
1561.5000000000	0.60366517305374	0.70509254932404
1563.0000000000	0.60703110694885	0.70353209972382
1564.5000000000	0.61048352718353	0.70195585489273
1566.0000000000	0.61402058601379	0.70035445690155
1567.5000000000	0.61763924360275	0.69871890544891
1569.0000000000	0.62133657932281	0.69704037904739
1570.5000000000	0.62510794401169	0.69531065225601
1572.0000000000	0.62894904613495	0.69352167844772
1573.5000000000	0.63285440206528	0.69166606664658
1575.0000000000	0.63681793212891	0.68973702192307
1576.5000000000	0.64083349704742	0.68772804737091
1578.0000000000	0.64489394426346	0.68563342094421
1579.5000000000	0.64899230003357	0.68344813585281
1581.0000000000	0.65312069654465	0.68116760253906
1582.5000000000	0.65727150440216	0.67878830432892
1584.0000000000	0.66143625974655	0.67630684375763
1585.5000000000	0.66560679674149	0.67372107505798
1587.0000000000	0.66977471113205	0.67102926969528
1588.5000000000	0.67393141984940	0.66823059320450
1590.0000000000	0.67806828022003	0.66532474756241
1591.5000000000	0.68217700719833	0.66231226921082
1593.0000000000	0.68624925613403	0.65919423103333
1594.5000000000	0.69027674198151	0.65597265958786
1596.0000000000	0.69425159692764	0.65265005826950
1597.5000000000	0.69816595315933	0.64922952651978
1599.0000000000	0.70201277732849	0.64571505784988
1600.5000000000	0.70578473806381	0.64211076498032
1602.0000000000	0.70947521924973	0.63842177391052
1603.5000000000	0.71307826042175	0.63465350866318
1605.0000000000	0.71658837795258	0.63081175088882
1606.5000000000	0.71999990940094	0.62690293788910
1608.0000000000	0.72330868244171	0.62293374538422
1609.5000000000	0.72651058435440	0.61891114711761
1611.0000000000	0.72960209846497	0.61484259366989
1612.5000000000	0.73258060216904	0.61073547601700
1614.0000000000	0.73544394969940	0.60659766197205
1615.5000000000	0.73819035291672	0.60243695974350
1617.0000000000	0.74081915616989	0.59826129674911
1618.5000000000	0.74332994222641	0.59407889842987
1620.0000000000	0.74572348594666	0.58989709615707
1621.5000000000	0.74800050258636	0.58572405576706
1623.0000000000	0.75016295909882	0.58156752586365
1624.5000000000	0.75221240520477	0.57743555307388
1626.0000000000	0.75415295362473	0.57333403825760
1627.5000000000	0.75598675012589	0.56927162408829
1629.0000000000	0.75771856307983	0.56525403261185
1630.5000000000	0.75935262441635	0.56128805875778
1632.0000000000	0.76089376211166	0.55737972259521
1633.5000000000	0.76234763860703	0.55353432893753
1635.0000000000	0.76372027397156	0.54975658655167
1636.5000000000	0.76501715183258	0.54605203866959
1638.0000000000	0.76624542474747	0.54242372512817
1639.5000000000	0.76741153001785	0.53887593746185
1641.0000000000	0.76852267980576	0.53541135787964
1642.5000000000	0.76958590745926	0.53203243017197
1644.0000000000	0.77060902118683	0.52874046564102
1645.5000000000	0.77159881591797	0.52553731203079
1647.0000000000	0.77256309986115	0.52242344617844
1648.5000000000	0.77350938320160	0.51939862966537
1650.0000000000	0.77444493770599	0.51646286249161
1651.5000000000	0.77537757158279	0.51361411809921
1653.0000000000	0.77631396055222	0.51085120439529
1654.5000000000	0.77726143598557	0.50817173719406
1656.0000000000	0.77822649478912	0.50557291507721
1657.5000000000	0.77921599149704	0.50305145978928
1659.0000000000	0.78023582696915	0.50060343742371
1660.5000000000	0.78129220008850	0.49822449684143
1662.0000000000	0.78239011764526	0.49590998888016
1663.5000000000	0.78353512287140	0.49365478754044
1665.0000000000	0.78473162651062	0.49145331978798
1666.5000000000	0.78598380088806	0.48929995298386
1668.0000000000	0.78729522228241	0.48718822002411
1669.5000000000	0.78866904973984	0.48511213064194
1671.0000000000	0.79010808467865	0.48306491971016
1672.5000000000	0.79161429405212	0.48103988170624
1674.0000000000	0.79318922758102	0.47903022170067
1675.5000000000	0.79483366012573	0.47702899575233
1677.0000000000	0.79654830694199	0.47502925992012
1678.5000000000	0.79833292961121	0.47302410006523
1680.0000000000	0.80018663406372	0.47100672125816
1681.5000000000	0.80210858583450	0.46897017955780
1683.0000000000	0.80409675836563	0.46690803766251
1684.5000000000	0.80614888668060	0.46481382846832
1686.0000000000	0.80826216936111	0.46268132328987
1687.5000000000	0.81043350696564	0.46050456166267
1689.0000000000	0.81265908479691	0.45827797055244
1690.5000000000	0.81493473052979	0.45599624514580
1692.0000000000	0.81725603342056	0.45365440845490
1693.5000000000	0.81961798667908	0.45124799013138
1695.0000000000	0.82201534509659	0.44877281785011
1696.5000000000	0.82444268465042	0.44622531533241
1698.0000000000	0.82689416408539	0.44360226392746
1699.5000000000	0.82936376333237	0.44090086221695
1701.0000000000	0.83184540271759	0.43811908364296
1702.5000000000	0.83433264493942	0.43525511026382
1704.0000000000	0.83681911230087	0.43230783939362
1705.5000000000	0.83929836750031	0.42927655577660
1707.0000000000	0.84176397323608	0.42616125941277
1708.5000000000	0.84420937299728	0.42296224832535
1710.0000000000	0.84662830829620	0.41968047618866
1711.5000000000	0.84901428222656	0.41631740331650
1713.0000000000	0.85136139392853	0.41287499666214
1714.5000000000	0.85366374254227	0.40935567021370
1716.0000000000	0.85591554641724	0.40576228499413
1717.5000000000	0.85811132192612	0.40209817886353
1719.0000000000	0.86024606227875	0.39836713671684
1720.5000000000	0.86231499910355	0.39457333087921
1722.0000000000	0.86431360244751	0.39072129130363
1723.5000000000	0.86623793840408	0.38681581616402
1725.0000000000	0.86808425188065	0.38286215066910
1726.5000000000	0.86984944343567	0.37886574864388
1728.0000000000	0.87153083086014	0.37483221292496
1729.5000000000	0.87312620878220	0.37076744437218
1731.0000000000	0.87463361024857	0.36667749285698
1732.5000000000	0.87605202198029	0.36256846785545
1734.0000000000	0.87738060951233	0.35844662785530
1735.5000000000	0.87861907482147	0.35431826114655
1737.0000000000	0.87976789474487	0.35018956661224
1738.5000000000	0.88082760572433	0.34606677293777
1740.0000000000	0.88179963827133	0.34195604920387
1741.5000000000	0.88268584012985	0.33786332607269
1743.0000000000	0.88348847627640	0.33379450440407
1744.5000000000	0.88421022891998	0.32975515723228
1746.0000000000	0.88485443592072	0.32575073838234
1747.5000000000	0.88542461395264	0.32178634405136
1749.0000000000	0.88592493534088	0.31786671280861
1750.5000000000	0.88635975122452	0.31399637460709
1752.0000000000	0.88673400878906	0.31017944216728
1753.5000000000	0.88705277442932	0.30641952157021
1755.0000000000	0.88732141256332	0.30271992087364
1756.5000000000	0.88754576444626	0.29908350110054
1758.0000000000	0.88773167133331	0.29551252722740
1759.5000000000	0.88788521289825	0.29200890660286
1761.0000000000	0.88801276683807	0.28857398033142
1762.5000000000	0.88812065124512	0.28520864248276
1764.0000000000	0.88821530342102	0.28191316127777
1765.5000000000	0.88830327987671	0.27868735790253
1767.0000000000	0.88839095830917	0.27553060650826
1768.5000000000	0.88848489522934	0.27244150638580
1770.0000000000	0.88859128952026	0.26941835880280
1771.5000000000	0.88871639966965	0.26645892858505
1773.0000000000	0.88886624574661	0.26356032490730
1774.5000000000	0.88904678821564	0.26071938872337
1776.0000000000	0.88926345109940	0.25793224573135
1777.5000000000	0.88952147960663	0.25519481301308
1779.0000000000	0.88982605934143	0.25250232219696
1780.5000000000	0.89018160104752	0.24984978139400
1782.0000000000	0.89059251546860	0.24723175168037
1783.5000000000	0.89106237888336	0.24464243650436
1785.0000000000	0.89159482717514	0.24207571148872
1786.5000000000	0.89219266176224	0.23952516913414
1788.0000000000	0.89285838603973	0.23698420822620
1789.5000000000	0.89359390735626	0.23444588482380
1791.0000000000	0.89440041780472	0.23190315067768
1792.5000000000	0.89527910947800	0.22934886813164
1794.0000000000	0.89623016119003	0.22677569091320
1795.5000000000	0.89725327491760	0.22417625784874
1797.0000000000	0.89834761619568	0.22154323756695
1798.5000000000	0.89951205253601	0.21886922419071
1800.0000000000	0.90074449777603	0.21614694595337
1801.5000000000	0.90204256772995	0.21336926519871
1803.0000000000	0.90340304374695	0.21052908897400
1804.5000000000	0.90482264757156	0.20761962234974
1806.0000000000	0.90629714727402	0.20463421940804
1807.5000000000	0.90782189369202	0.20156650245190
1809.0000000000	0.90939176082611	0.19841046631336
1810.5000000000	0.91100132465363	0.19516035914421
1812.0000000000	0.91264462471008	0.19181087613106
1813.5000000000	0.91431522369385	0.18835708498955
1815.0000000000	0.91600614786148	0.18479444086552
1816.5000000000	0.91771036386490	0.18111893534660
1818.0000000000	0.91942054033279	0.17732705175877
1819.5000000000	0.92112863063812	0.17341570556164
1821.0000000000	0.92282688617706	0.16938243806362
1822.5000000000	0.92450684309006	0.16522526741028
1824.0000000000	0.92616021633148	0.16094282269478
1825.5000000000	0.92777836322784	0.15653431415558
1827.0000000000	0.92935276031494	0.15199948847294
1828.5000000000	0.93087470531464	0.14733877778053
1830.0000000000	0.93233543634415	0.14255313575268
1831.5000000000	0.93372631072998	0.13764412701130
1833.0000000000	0.93503886461258	0.13261394202709
1834.5000000000	0.93626439571381	0.12746536731720
1836.0000000000	0.93739461898804	0.12220171093941
1837.5000000000	0.93842154741287	0.11682694405317
1839.0000000000	0.93933713436127	0.11134549975395
1840.5000000000	0.94013392925262	0.10576243698597
1842.0000000000	0.94080460071564	0.10008329898119
1843.5000000000	0.94134211540222	0.094314105808735
1845.0000000000	0.94173985719681	0.088461391627789
1846.5000000000	0.94199180603027	0.082532137632370
1848.0000000000	0.94209212064743	0.076533719897270
1849.5000000000	0.94203585386276	0.070473931729794
1851.0000000000	0.94181787967682	0.064360894262791
1852.5000000000	0.94143408536911	0.058203075081110
1854.0000000000	0.94088089466095	0.052009217441082
1855.5000000000	0.94015532732010	0.045788306742907
1857.0000000000	0.93925452232361	0.039549555629492
1858.5000000000	0.93817669153214	0.033302340656519
1860.0000000000	0.93692046403885	0.027056157588959
1861.5000000000	0.93548518419266	0.020820613950491
1863.0000000000	0.93387061357498	0.014605350792408
1864.5000000000	0.93207740783691	0.0084200240671635
1866.0000000000	0.93010646104813	0.0022742573637515
1867.5000000000	0.92795962095261	-0.0038223995361477
1869.0000000000	0.92563921213150	-0.0098605109378695
1870.5000000000	0.92314791679382	-0.015830792486668
1872.0000000000	0.92048966884613	-0.021724151447415
1873.5000000000	0.91766810417175	-0.027531735599041
1875.0000000000	0.91468805074692	-0.033244937658310
1876.5000000000	0.91155457496643	-0.038855478167534
1878.0000000000	0.90827333927155	-0.044355385005474
1879.5000000000	0.90485060214996	-0.049737069755793
1881.0000000000	0.90129268169403	-0.054993353784084
1882.5000000000	0.89760690927505	-0.060117449611425
1884.0000000000	0.89380049705505	-0.065103068947792
1885.5000000000	0.88988137245178	-0.069944351911545
1887.0000000000	0.88585770130157	-0.074635967612267
1888.5000000000	0.88173770904541	-0.079173095524311
1890.0000000000	0.87753039598465	-0.083551459014416
1891.5000000000	0.87324446439743	-0.087767310440540
1893.0000000000	0.86888927221298	-0.091817490756512
1894.5000000000	0.86447399854660	-0.095699384808540
1896.0000000000	0.86000800132751	-0.099410988390446
1897.5000000000	0.85550093650818	-0.10295084863901
1899.0000000000	0.85096240043640	-0.10631813108921
1900.5000000000	0.84640175104141	-0.10951256006956
1902.0000000000	0.84182876348495	-0.11253444850445
1903.5000000000	0.83725267648697	-0.11538472771645
1905.0000000000	0.83268302679062	-0.11806481331587
1906.5000000000	0.82812917232513	-0.12057677656412
1908.0000000000	0.82359993457794	-0.12292315065861
1909.5000000000	0.81910425424576	-0.12510706484318
1911.0000000000	0.81465083360672	-0.12713214755058
1912.5000000000	0.81024795770645	-0.12900249660015
1914.0000000000	0.80590379238129	-0.13072271645069
1915.5000000000	0.80162602663040	-0.13229790329933
1917.0000000000	0.79742205142975	-0.13373346626759
1918.5000000000	0.79329890012741	-0.13503536581993
1920.0000000000	0.78926318883896	-0.13620984554291
1921.5000000000	0.78532123565674	-0.13726355135441
1923.0000000000	0.78147876262665	-0.13820339739323
1924.5000000000	0.77774101495743	-0.13903668522835
1926.0000000000	0.77411293983459	-0.13977089524269
1927.5000000000	0.77059906721115	-0.14041379094124
1929.0000000000	0.76720309257507	-0.14097334444523
1930.5000000000	0.76392853260040	-0.14145764708519
1932.0000000000	0.76077824831009	-0.14187496900558
1933.5000000000	0.75775486230850	-0.14223371446133
1935.0000000000	0.75485998392105	-0.14254228770733
1936.5000000000	0.75209522247314	-0.14280927181244
1938.0000000000	0.74946147203445	-0.14304311573505
1939.5000000000	0.74695909023285	-0.14325237274170
1941.0000000000	0.74458813667297	-0.14344549179077
1942.5000000000	0.74234789609909	-0.14363086223602
1944.0000000000	0.74023735523224	-0.14381678402424
1945.5000000000	0.73825526237488	-0.14401142299175
1947.0000000000	0.73639929294586	-0.14422282576561
1948.5000000000	0.73466736078262	-0.14445883035660
1950.0000000000	0.73305660486221	-0.14472709596157
1951.5000000000	0.73156380653381	-0.14503502845764
1953.0000000000	0.73018544912338	-0.14538985490799
1954.5000000000	0.72891759872437	-0.14579853415489
1956.0000000000	0.72775596380234	-0.14626772701740
1957.5000000000	0.72669589519501	-0.14680378139019
1959.0000000000	0.72573244571686	-0.14741277694702
1960.5000000000	0.72486054897308	-0.14810051023960
1962.0000000000	0.72407466173172	-0.14887239038944
1963.5000000000	0.72336912155151	-0.14973351359367
1965.0000000000	0.72273796796799	-0.15068864822388
1966.5000000000	0.72217518091202	-0.15174219012260
1968.0000000000	0.72167438268661	-0.15289819240570
1969.5000000000	0.72122925519943	-0.15416035056114
1971.0000000000	0.72083312273026	-0.15553201735020
1972.5000000000	0.72047930955887	-0.15701612830162
1974.0000000000	0.72016113996506	-0.15861533582211
1975.5000000000	0.71987175941467	-0.16033187508583
1977.0000000000	0.71960431337357	-0.16216768324375
1978.5000000000	0.71935182809830	-0.16412426531315
1980.0000000000	0.71910732984543	-0.16620287299156
1981.5000000000	0.71886408329010	-0.16840435564518
1983.0000000000	0.71861505508423	-0.17072926461697
1984.5000000000	0.71835333108902	-0.17317780852318
1986.0000000000	0.71807229518890	-0.17574989795685
1987.5000000000	0.71776509284973	-0.17844514548779
1989.0000000000	0.71742492914200	-0.18126283586025
1990.5000000000	0.71704536676407	-0.18420197069645
1992.0000000000	0.71661996841431	-0.18726135790348
1993.5000000000	0.71614217758179	-0.19043934345245
1995.0000000000	0.71560579538345	-0.19373424351215
1996.5000000000	0.71500468254089	-0.19714404642582
1998.0000000000	0.71433287858963	-0.20066639780998
1999.5000000000	0.71358442306519	-0.20429891347885
2001.0000000000	0.71275347471237	-0.20803879201412
2002.5000000000	0.71183454990387	-0.21188321709633
2004.0000000000	0.71082228422165	-0.21582907438278
2005.5000000000	0.70971119403839	-0.21987301111221
2007.0000000000	0.70849627256393	-0.22401168942451
2008.5000000000	0.70717233419418	-0.22824136912823
2010.0000000000	0.70573467016220	-0.23255833983421
2011.5000000000	0.70417857170105	-0.23695863783360
2013.0000000000	0.70249933004379	-0.24143819510937
2014.5000000000	0.70069265365601	-0.24599273502827
2016.0000000000	0.69875431060791	-0.25061798095703
2017.5000000000	0.69668024778366	-0.25530943274498
2019.0000000000	0.69446653127670	-0.26006239652634
2020.5000000000	0.69210922718048	-0.26487198472023
2022.0000000000	0.68960464000702	-0.26973405480385
2023.5000000000	0.68694943189621	-0.27464294433594
2025.0000000000	0.68414026498795	-0.27959349751472
2026.5000000000	0.68117368221283	-0.28458112478256
2028.0000000000	0.67804688215256	-0.28960007429123
2029.5000000000	0.67475688457489	-0.29464519023895
2031.0000000000	0.67130070924759	-0.29971101880074
2032.5000000000	0.66767621040344	-0.30479121208191
2034.0000000000	0.66388016939163	-0.30988129973412
2035.5000000000	0.65991115570068	-0.31497406959534
2037.0000000000	0.65576624870300	-0.32006472349167
2038.5000000000	0.65144389867783	-0.32514637708664
2040.0000000000	0.64694207906723	-0.33021336793900
2041.5000000000	0.64225912094116	-0.33525913953781
2043.0000000000	0.63739365339279	-0.34027743339539
2044.5000000000	0.63234424591064	-0.34526166319847
2046.0000000000	0.62710976600647	-0.35020527243614
2047.5000000000	0.62168920040131	-0.35510152578354
2049.0000000000	0.61608201265335	-0.35994356870651
2050.5000000000	0.61028748750687	-0.36472442746162
2052.0000000000	0.60430538654327	-0.36943709850311
2053.5000000000	0.59813547134399	-0.37407448887825
2055.0000000000	0.59177809953690	-0.37862920761108
2056.5000000000	0.58523350954056	-0.38309401273727
2058.0000000000	0.57850223779678	-0.38746154308319
2059.5000000000	0.57158541679382	-0.39172402024269
2061.0000000000	0.56448405981064	-0.39587414264679
2062.5000000000	0.55719953775406	-0.39990410208702
2064.0000000000	0.54973387718201	-0.40380623936653
2065.5000000000	0.54208886623383	-0.40757265686989
2067.0000000000	0.53426688909531	-0.41119572520256
2068.5000000000	0.52627068758011	-0.41466751694679
2070.0000000000	0.51810330152512	-0.41798013448715
2071.5000000000	0.50976806879044	-0.42112582921982
2073.0000000000	0.50126874446869	-0.42409670352936
2074.5000000000	0.49260926246643	-0.42688488960266
2076.0000000000	0.48379403352737	-0.42948266863823
